#H
SOURCE='PSPICE' VERSION='PSpice 10.5.0 (Jan 2005)'
TITLE='** Profile: "SCHEMATIC1-test"  [ C:\Users\James\Dropbox\PHD\Chapter 3\KHU MK2.5\EITMark25_Schematic Layout\resisterphantom_pspice (1'
SUBTITLE=''
TIME='14:14:45' DATE='02/08/13' TEMPERATURE='2.700E01'
ANALYSIS='Transient Analysis' SERIALNO='61413'
ALLVALUES='NO' COMPLEXVALUES='NO' NODES='32'
SWEEPVAR='Time' SWEEPMODE='VAR_STEP'
XBEGIN='0.000E00' XEND='1.000E-04'
FORMAT='0 VOLTSorAMPS;EFLOAT : NODEorBRANCH;NODE  '
DGTLDATA='NO' 
#N 
'V(ch2)';'V(R2:2)';'V(R3:1)';'V(R10:2)';'V(CH2)';'V2(R2)';'V1(R3)';'V2(R10)' 'V(ch3)';'V(R3:2)';'V(R4:1)';'V(R11:2)';'V(CH3)';'V2(R3)';'V1(R4)';
'V2(R11)' 'V(ch3)';'V(R3:2)';'V(R4:1)';'V(R11:2)';'V(CH3)';'V2(R3)';'V1(R4)';'V2(R11)' 'V(ch4)';'V(R4:2)';'V(R5:1)';'V(R12:2)';'V(CH4)';'V2(R4)';
'V1(R5)';'V2(R12)' 'V(ch4)';'V(R4:2)';'V(R5:1)';'V(R12:2)';'V(CH4)';'V2(R4)';'V1(R5)';'V2(R12)' 'V(ch5)';'V(R5:2)';'V(R6:1)';'V(R13:2)';'V(CH5)';
'V2(R5)';'V1(R6)';'V2(R13)' 'V(ch5)';'V(R5:2)';'V(R6:1)';'V(R13:2)';'V(CH5)';'V2(R5)';'V1(R6)';'V2(R13)' 'V(ch6)';'V(R14:2)';'V(R6:2)';'V(R7:1)';
'V(CH6)';'V2(R14)';'V2(R6)';'V1(R7)' 'V(ch6)';'V(R14:2)';'V(R6:2)';'V(R7:1)';'V(CH6)';'V2(R14)';'V2(R6)';'V1(R7)' 'V(ch7)';'V(R15:2)';'V(R7:2)';
'V(R8:1)';'V(CH7)';'V2(R15)';'V2(R7)';'V1(R8)' 'V(ch7)';'V(R15:2)';'V(R7:2)';'V(R8:1)';'V(CH7)';'V2(R15)';'V2(R7)';'V1(R8)' 'V(ch8)';'V(R16:2)';
'V(R8:2)';'V(R17:1)';'V(CH8)';'V2(R16)';'V2(R8)';'V1(R17)' 'V(ch1)';'V(R1:2)';'V(R2:1)';'V(I1:+)';'V(R9:2)';'V(CH1)';'V1(I1)';'V2(R1)';'V1(R2)';
'V2(R9)' 'V(ch2)';'V(R2:2)';'V(R3:1)';'V(R10:2)';'V(CH2)';'V2(R2)';'V1(R3)';'V2(R10)' 'V(ch16)';'V(R1:1)';'V(R32:2)';'V(R24:2)';'V(I2:+)';
'V(CH16)';'V1(I2)';'V1(R1)';'V2(R32)';'V2(R24)' 'V(ch1)';'V(R1:2)';'V(R2:1)';'V(I1:+)';'V(R9:2)';'V(CH1)';'V1(I1)';'V2(R1)';'V1(R2)';'V2(R9)' 
'V(ch8)';'V(R16:2)';'V(R8:2)';'V(R17:1)';'V(CH8)';'V2(R16)';'V2(R8)';'V1(R17)' 'V(ch9)';'V(R18:1)';'V(R25:2)';'V(R17:2)';'V(CH9)';'V1(R18)';
'V2(R25)';'V2(R17)' 'V(ch9)';'V(R18:1)';'V(R25:2)';'V(R17:2)';'V(CH9)';'V1(R18)';'V2(R25)';'V2(R17)' 'V(ch10)';'V(R18:2)';'V(R19:1)';'V(R26:2)';
'V(CH10)';'V2(R18)';'V1(R19)';'V2(R26)' 'V(ch10)';'V(R18:2)';'V(R19:1)';'V(R26:2)';'V(CH10)';'V2(R18)';'V1(R19)';'V2(R26)' 'V(ch11)';'V(R19:2)';
'V(R20:1)';'V(R27:2)';'V(CH11)';'V2(R19)';'V1(R20)';'V2(R27)' 'V(ch11)';'V(R19:2)';'V(R20:1)';'V(R27:2)';'V(CH11)';'V2(R19)';'V1(R20)';'V2(R27)' 
'V(ch12)';'V(R20:2)';'V(R21:1)';'V(R28:2)';'V(CH12)';'V2(R20)';'V1(R21)';'V2(R28)' 'V(ch12)';'V(R20:2)';'V(R21:1)';'V(R28:2)';'V(CH12)';
'V2(R20)';'V1(R21)';'V2(R28)' 'V(ch13)';'V(R21:2)';'V(R22:1)';'V(R29:2)';'V(CH13)';'V2(R21)';'V1(R22)';'V2(R29)' 'V(ch13)';'V(R21:2)';'V(R22:1)';
'V(R29:2)';'V(CH13)';'V2(R21)';'V1(R22)';'V2(R29)' 'V(ch14)';'V(R30:2)';'V(R22:2)';'V(R23:1)';'V(CH14)';'V2(R30)';'V2(R22)';'V1(R23)' 'V(ch14)';
'V(R30:2)';'V(R22:2)';'V(R23:1)';'V(CH14)';'V2(R30)';'V2(R22)';'V1(R23)' 'V(ch15)';'V(R31:2)';'V(R23:2)';'V(R24:1)';'V(CH15)';'V2(R31)';
'V2(R23)';'V1(R24)' 'V(ch15)';'V(R31:2)';'V(R23:2)';'V(R24:1)';'V(CH15)';'V2(R31)';'V2(R23)';'V1(R24)' 'V(ch16)';'V(R1:1)';'V(R32:2)';'V(R24:2)';
'V(I2:+)';'V(CH16)';'V1(I2)';'V1(R1)';'V2(R32)';'V2(R24)' 
#C 0.0000000000E00 32
0.000E00:1 0.000E00:2 0.000E00:3 0.000E00:4 0.000E00:5 0.000E00:6 0.000E00:7 0.000E00:8 0.000E00:9 0.000E00:a 0.000E00:b 
0.000E00:c 0.000E00:d 0.000E00:e 0.000E00:f 0.000E00:10 0.000E00:11 0.000E00:12 0.000E00:13 0.000E00:14 0.000E00:15 0.000E00:16 
0.000E00:17 0.000E00:18 0.000E00:19 0.000E00:1a 0.000E00:1b 0.000E00:1c 0.000E00:1d 0.000E00:1e 0.000E00:1f 0.000E00:20 
#C 1.0000000000E-08 32
-3.264E-05:1 -1.247E-05:2 -1.247E-05:3 -4.761E-06:4 -4.761E-06:5 -1.817E-06:6 -1.817E-06:7 -6.891E-07:8 -6.891E-07:9 -2.506E-07:a 
-2.506E-07:b -6.264E-08:c -8.544E-05:d -3.264E-05:e 8.544E-05:f -8.544E-05:10 -6.264E-08:11 6.264E-08:12 6.264E-08:13 2.506E-07:14 
2.506E-07:15 6.891E-07:16 6.891E-07:17 1.817E-06:18 1.817E-06:19 4.761E-06:1a 4.761E-06:1b 1.247E-05:1c 1.247E-05:1d 3.264E-05:1e 
3.264E-05:1f 8.544E-05:20 
#C 2.0000000000E-08 32
-6.527E-05:1 -2.493E-05:2 -2.493E-05:3 -9.521E-06:4 -9.521E-06:5 -3.633E-06:6 -3.633E-06:7 -1.378E-06:8 -1.378E-06:9 -5.011E-07:a 
-5.011E-07:b -1.253E-07:c -1.709E-04:d -6.527E-05:e 1.709E-04:f -1.709E-04:10 -1.253E-07:11 1.253E-07:12 1.253E-07:13 5.011E-07:14 
5.011E-07:15 1.378E-06:16 1.378E-06:17 3.633E-06:18 3.633E-06:19 9.521E-06:1a 9.521E-06:1b 2.493E-05:1c 2.493E-05:1d 6.527E-05:1e 
6.527E-05:1f 1.709E-04:20 
#C 4.0000338554E-08 32
-1.305E-04:1 -4.986E-05:2 -4.986E-05:3 -1.904E-05:4 -1.904E-05:5 -7.266E-06:6 -7.266E-06:7 -2.756E-06:8 -2.756E-06:9 -1.002E-06:a 
-1.002E-06:b -2.506E-07:c -3.418E-04:d -1.305E-04:e 3.418E-04:f -3.418E-04:10 -2.506E-07:11 2.506E-07:12 2.506E-07:13 1.002E-06:14 
1.002E-06:15 2.756E-06:16 2.756E-06:17 7.266E-06:18 7.266E-06:19 1.904E-05:1a 1.904E-05:1b 4.986E-05:1c 4.986E-05:1d 1.305E-04:1e 
1.305E-04:1f 3.418E-04:20 
#C 8.0001015663E-08 32
-2.611E-04:1 -9.973E-05:2 -9.973E-05:3 -3.809E-05:4 -3.809E-05:5 -1.453E-05:6 -1.453E-05:7 -5.512E-06:8 -5.512E-06:9 -2.005E-06:a 
-2.005E-06:b -5.011E-07:c -6.835E-04:d -2.611E-04:e 6.835E-04:f -6.835E-04:10 -5.011E-07:11 5.011E-07:12 5.011E-07:13 2.005E-06:14 
2.005E-06:15 5.512E-06:16 5.512E-06:17 1.453E-05:18 1.453E-05:19 3.809E-05:1a 3.809E-05:1b 9.973E-05:1c 9.973E-05:1d 2.611E-04:1e 
2.611E-04:1f 6.835E-04:20 
#C 1.6000236988E-07 32
-5.222E-04:1 -1.994E-04:2 -1.994E-04:3 -7.617E-05:4 -7.617E-05:5 -2.907E-05:6 -2.907E-05:7 -1.102E-05:8 -1.102E-05:9 -4.009E-06:a 
-4.009E-06:b -1.002E-06:c -1.367E-03:d -5.222E-04:e 1.367E-03:f -1.367E-03:10 -1.002E-06:11 1.002E-06:12 1.002E-06:13 4.009E-06:14 
4.009E-06:15 1.102E-05:16 1.102E-05:17 2.907E-05:18 2.907E-05:19 7.617E-05:1a 7.617E-05:1b 1.994E-04:1c 1.994E-04:1d 5.222E-04:1e 
5.222E-04:1f 1.367E-03:20 
#C 3.2000507832E-07 32
-1.044E-03:1 -3.989E-04:2 -3.989E-04:3 -1.523E-04:4 -1.523E-04:5 -5.813E-05:6 -5.813E-05:7 -2.205E-05:8 -2.205E-05:9 -8.018E-06:a 
-8.018E-06:b -2.004E-06:c -2.734E-03:d -1.044E-03:e 2.734E-03:f -2.734E-03:10 -2.004E-06:11 2.004E-06:12 2.004E-06:13 8.018E-06:14 
8.018E-06:15 2.205E-05:16 2.205E-05:17 5.813E-05:18 5.813E-05:19 1.523E-04:1a 1.523E-04:1b 3.989E-04:1c 3.989E-04:1d 1.044E-03:1e 
1.044E-03:1f 2.734E-03:20 
#C 6.4001049519E-07 32
-2.088E-03:1 -7.976E-04:2 -7.976E-04:3 -3.046E-04:4 -3.046E-04:5 -1.162E-04:6 -1.162E-04:7 -4.409E-05:8 -4.409E-05:9 -1.603E-05:a 
-1.603E-05:b -4.008E-06:c -5.467E-03:d -2.088E-03:e 5.467E-03:f -5.467E-03:10 -4.008E-06:11 4.008E-06:12 4.008E-06:13 1.603E-05:14 
1.603E-05:15 4.409E-05:16 4.409E-05:17 1.162E-04:18 1.162E-04:19 3.046E-04:1a 3.046E-04:1b 7.976E-04:1c 7.976E-04:1d 2.088E-03:1e 
2.088E-03:1f 5.467E-03:20 
#C 1.2800213289E-06 32
-4.173E-03:1 -1.594E-03:2 -1.594E-03:3 -6.087E-04:4 -6.087E-04:5 -2.323E-04:6 -2.323E-04:7 -8.810E-05:8 -8.810E-05:9 -3.204E-05:a 
-3.204E-05:b -8.010E-06:c -1.093E-02:d -4.173E-03:e 1.093E-02:f -1.093E-02:10 -8.010E-06:11 8.010E-06:12 8.010E-06:13 3.204E-05:14 
3.204E-05:15 8.810E-05:16 8.810E-05:17 2.323E-04:18 2.323E-04:19 6.087E-04:1a 6.087E-04:1b 1.594E-03:1c 1.594E-03:1d 4.173E-03:1e 
4.173E-03:1f 1.093E-02:20 
#C 2.2800442171E-06 32
-7.416E-03:1 -2.832E-03:2 -2.832E-03:3 -1.082E-03:4 -1.082E-03:5 -4.128E-04:6 -4.128E-04:7 -1.566E-04:8 -1.566E-04:9 -5.693E-05:a 
-5.693E-05:b -1.423E-05:c -1.941E-02:d -7.416E-03:e 1.941E-02:f -1.941E-02:10 -1.423E-05:11 1.423E-05:12 1.423E-05:13 5.693E-05:14 
5.693E-05:15 1.566E-04:16 1.566E-04:17 4.128E-04:18 4.128E-04:19 1.082E-03:1a 1.082E-03:1b 2.832E-03:1c 2.832E-03:1d 7.416E-03:1e 
7.416E-03:1f 1.941E-02:20 
#C 3.2800671053E-06 32
-1.063E-02:1 -4.060E-03:2 -4.060E-03:3 -1.551E-03:4 -1.551E-03:5 -5.916E-04:6 -5.916E-04:7 -2.244E-04:8 -2.244E-04:9 -8.161E-05:a 
-8.161E-05:b -2.040E-05:c -2.783E-02:d -1.063E-02:e 2.783E-02:f -2.783E-02:10 -2.040E-05:11 2.040E-05:12 2.040E-05:13 8.161E-05:14 
8.161E-05:15 2.244E-04:16 2.244E-04:17 5.916E-04:18 5.916E-04:19 1.551E-03:1a 1.551E-03:1b 4.060E-03:1c 4.060E-03:1d 1.063E-02:1e 
1.063E-02:1f 2.783E-02:20 
#C 4.2800899935E-06 32
-1.380E-02:1 -5.271E-03:2 -5.271E-03:3 -2.013E-03:4 -2.013E-03:5 -7.682E-04:6 -7.682E-04:7 -2.914E-04:8 -2.914E-04:9 -1.060E-04:a 
-1.060E-04:b -2.649E-05:c -3.613E-02:d -1.380E-02:e 3.613E-02:f -3.613E-02:10 -2.649E-05:11 2.649E-05:12 2.649E-05:13 1.060E-04:14 
1.060E-04:15 2.914E-04:16 2.914E-04:17 7.682E-04:18 7.682E-04:19 2.013E-03:1a 2.013E-03:1b 5.271E-03:1c 5.271E-03:1d 1.380E-02:1e 
1.380E-02:1f 3.613E-02:20 
#C 5.2801128817E-06 32
-1.692E-02:1 -6.462E-03:2 -6.462E-03:3 -2.468E-03:4 -2.468E-03:5 -9.417E-04:6 -9.417E-04:7 -3.572E-04:8 -3.572E-04:9 -1.299E-04:a 
-1.299E-04:b -3.247E-05:c -4.429E-02:d -1.692E-02:e 4.429E-02:f -4.429E-02:10 -3.247E-05:11 3.247E-05:12 3.247E-05:13 1.299E-04:14 
1.299E-04:15 3.572E-04:16 3.572E-04:17 9.417E-04:18 9.417E-04:19 2.468E-03:1a 2.468E-03:1b 6.462E-03:1c 6.462E-03:1d 1.692E-02:1e 
1.692E-02:1f 4.429E-02:20 
#C 6.2801357698E-06 32
-1.997E-02:1 -7.627E-03:2 -7.627E-03:3 -2.913E-03:4 -2.913E-03:5 -1.111E-03:6 -1.111E-03:7 -4.216E-04:8 -4.216E-04:9 -1.533E-04:a 
-1.533E-04:b -3.833E-05:c -5.228E-02:d -1.997E-02:e 5.228E-02:f -5.228E-02:10 -3.833E-05:11 3.833E-05:12 3.833E-05:13 1.533E-04:14 
1.533E-04:15 4.216E-04:16 4.216E-04:17 1.111E-03:18 1.111E-03:19 2.913E-03:1a 2.913E-03:1b 7.627E-03:1c 7.627E-03:1d 1.997E-02:1e 
1.997E-02:1f 5.228E-02:20 
#C 7.2801586580E-06 32
-2.294E-02:1 -8.762E-03:2 -8.762E-03:3 -3.346E-03:4 -3.346E-03:5 -1.277E-03:6 -1.277E-03:7 -4.843E-04:8 -4.843E-04:9 -1.761E-04:a 
-1.761E-04:b -4.403E-05:c -6.006E-02:d -2.294E-02:e 6.006E-02:f -6.006E-02:10 -4.403E-05:11 4.403E-05:12 4.403E-05:13 1.761E-04:14 
1.761E-04:15 4.843E-04:16 4.843E-04:17 1.277E-03:18 1.277E-03:19 3.346E-03:1a 3.346E-03:1b 8.762E-03:1c 8.762E-03:1d 2.294E-02:1e 
2.294E-02:1f 6.006E-02:20 
#C 8.2801815462E-06 32
-2.582E-02:1 -9.862E-03:2 -9.862E-03:3 -3.767E-03:4 -3.767E-03:5 -1.437E-03:6 -1.437E-03:7 -5.452E-04:8 -5.452E-04:9 -1.982E-04:a 
-1.982E-04:b -4.956E-05:c -6.760E-02:d -2.582E-02:e 6.760E-02:f -6.760E-02:10 -4.956E-05:11 4.956E-05:12 4.956E-05:13 1.982E-04:14 
1.982E-04:15 5.452E-04:16 5.452E-04:17 1.437E-03:18 1.437E-03:19 3.767E-03:1a 3.767E-03:1b 9.862E-03:1c 9.862E-03:1d 2.582E-02:1e 
2.582E-02:1f 6.760E-02:20 
#C 9.2802044344E-06 32
-2.860E-02:1 -1.092E-02:2 -1.092E-02:3 -4.172E-03:4 -4.172E-03:5 -1.592E-03:6 -1.592E-03:7 -6.038E-04:8 -6.038E-04:9 -2.196E-04:a 
-2.196E-04:b -5.489E-05:c -7.487E-02:d -2.860E-02:e 7.487E-02:f -7.487E-02:10 -5.489E-05:11 5.489E-05:12 5.489E-05:13 2.196E-04:14 
2.196E-04:15 6.038E-04:16 6.038E-04:17 1.592E-03:18 1.592E-03:19 4.172E-03:1a 4.172E-03:1b 1.092E-02:1c 1.092E-02:1d 2.860E-02:1e 
2.860E-02:1f 7.487E-02:20 
#C 1.0280227323E-05 32
-3.127E-02:1 -1.194E-02:2 -1.194E-02:3 -4.561E-03:4 -4.561E-03:5 -1.740E-03:6 -1.740E-03:7 -6.601E-04:8 -6.601E-04:9 -2.400E-04:a 
-2.400E-04:b -6.001E-05:c -8.185E-02:d -3.127E-02:e 8.185E-02:f -8.185E-02:10 -6.001E-05:11 6.001E-05:12 6.001E-05:13 2.400E-04:14 
2.400E-04:15 6.601E-04:16 6.601E-04:17 1.740E-03:18 1.740E-03:19 4.561E-03:1a 4.561E-03:1b 1.194E-02:1c 1.194E-02:1d 3.127E-02:1e 
3.127E-02:1f 8.185E-02:20 
#C 1.1280250211E-05 32
-3.381E-02:1 -1.291E-02:2 -1.291E-02:3 -4.932E-03:4 -4.932E-03:5 -1.882E-03:6 -1.882E-03:7 -7.138E-04:8 -7.138E-04:9 -2.596E-04:a 
-2.596E-04:b -6.489E-05:c -8.851E-02:d -3.381E-02:e 8.851E-02:f -8.851E-02:10 -6.489E-05:11 6.489E-05:12 6.489E-05:13 2.596E-04:14 
2.596E-04:15 7.138E-04:16 7.138E-04:17 1.882E-03:18 1.882E-03:19 4.932E-03:1a 4.932E-03:1b 1.291E-02:1c 1.291E-02:1d 3.381E-02:1e 
3.381E-02:1f 8.851E-02:20 
#C 1.2280273099E-05 32
-3.622E-02:1 -1.383E-02:2 -1.383E-02:3 -5.283E-03:4 -5.283E-03:5 -2.016E-03:6 -2.016E-03:7 -7.647E-04:8 -7.647E-04:9 -2.781E-04:a 
-2.781E-04:b -6.952E-05:c -9.482E-02:d -3.622E-02:e 9.482E-02:f -9.482E-02:10 -6.952E-05:11 6.952E-05:12 6.952E-05:13 2.781E-04:14 
2.781E-04:15 7.647E-04:16 7.647E-04:17 2.016E-03:18 2.016E-03:19 5.283E-03:1a 5.283E-03:1b 1.383E-02:1c 1.383E-02:1d 3.622E-02:1e 
3.622E-02:1f 9.482E-02:20 
#C 1.3280295987E-05 32
-3.848E-02:1 -1.470E-02:2 -1.470E-02:3 -5.614E-03:4 -5.614E-03:5 -2.142E-03:6 -2.142E-03:7 -8.125E-04:8 -8.125E-04:9 -2.955E-04:a 
-2.955E-04:b -7.387E-05:c -1.008E-01:d -3.848E-02:e 1.008E-01:f -1.008E-01:10 -7.387E-05:11 7.387E-05:12 7.387E-05:13 2.955E-04:14 
2.955E-04:15 8.125E-04:16 8.125E-04:17 2.142E-03:18 2.142E-03:19 5.614E-03:1a 5.614E-03:1b 1.470E-02:1c 1.470E-02:1d 3.848E-02:1e 
3.848E-02:1f 1.008E-01:20 
#C 1.4280318875E-05 32
-4.060E-02:1 -1.551E-02:2 -1.551E-02:3 -5.922E-03:4 -5.922E-03:5 -2.260E-03:6 -2.260E-03:7 -8.572E-04:8 -8.572E-04:9 -3.117E-04:a 
-3.117E-04:b -7.792E-05:c -1.063E-01:d -4.060E-02:e 1.063E-01:f -1.063E-01:10 -7.792E-05:11 7.792E-05:12 7.792E-05:13 3.117E-04:14 
3.117E-04:15 8.572E-04:16 8.572E-04:17 2.260E-03:18 2.260E-03:19 5.922E-03:1a 5.922E-03:1b 1.551E-02:1c 1.551E-02:1d 4.060E-02:1e 
4.060E-02:1f 1.063E-01:20 
#C 1.5280341764E-05 32
-4.255E-02:1 -1.625E-02:2 -1.625E-02:3 -6.207E-03:4 -6.207E-03:5 -2.369E-03:6 -2.369E-03:7 -8.984E-04:8 -8.984E-04:9 -3.267E-04:a 
-3.267E-04:b -8.168E-05:c -1.114E-01:d -4.255E-02:e 1.114E-01:f -1.114E-01:10 -8.168E-05:11 8.168E-05:12 8.168E-05:13 3.267E-04:14 
3.267E-04:15 8.984E-04:16 8.984E-04:17 2.369E-03:18 2.369E-03:19 6.207E-03:1a 6.207E-03:1b 1.625E-02:1c 1.625E-02:1d 4.255E-02:1e 
4.255E-02:1f 1.114E-01:20 
#C 1.6280364652E-05 32
-4.434E-02:1 -1.694E-02:2 -1.694E-02:3 -6.468E-03:4 -6.468E-03:5 -2.468E-03:6 -2.468E-03:7 -9.361E-04:8 -9.361E-04:9 -3.404E-04:a 
-3.404E-04:b -8.510E-05:c -1.161E-01:d -4.434E-02:e 1.161E-01:f -1.161E-01:10 -8.510E-05:11 8.510E-05:12 8.510E-05:13 3.404E-04:14 
3.404E-04:15 9.361E-04:16 9.361E-04:17 2.468E-03:18 2.468E-03:19 6.468E-03:1a 6.468E-03:1b 1.694E-02:1c 1.694E-02:1d 4.434E-02:1e 
4.434E-02:1f 1.161E-01:20 
#C 1.7280387540E-05 32
-4.595E-02:1 -1.755E-02:2 -1.755E-02:3 -6.703E-03:4 -6.703E-03:5 -2.558E-03:6 -2.558E-03:7 -9.702E-04:8 -9.702E-04:9 -3.528E-04:a 
-3.528E-04:b -8.820E-05:c -1.203E-01:d -4.595E-02:e 1.203E-01:f -1.203E-01:10 -8.820E-05:11 8.820E-05:12 8.820E-05:13 3.528E-04:14 
3.528E-04:15 9.702E-04:16 9.702E-04:17 2.558E-03:18 2.558E-03:19 6.703E-03:1a 6.703E-03:1b 1.755E-02:1c 1.755E-02:1d 4.595E-02:1e 
4.595E-02:1f 1.203E-01:20 
#C 1.8280410428E-05 32
-4.738E-02:1 -1.810E-02:2 -1.810E-02:3 -6.912E-03:4 -6.912E-03:5 -2.637E-03:6 -2.637E-03:7 -1.000E-03:8 -1.000E-03:9 -3.638E-04:a 
-3.638E-04:b -9.094E-05:c -1.240E-01:d -4.738E-02:e 1.240E-01:f -1.240E-01:10 -9.094E-05:11 9.094E-05:12 9.094E-05:13 3.638E-04:14 
3.638E-04:15 1.000E-03:16 1.000E-03:17 2.637E-03:18 2.637E-03:19 6.912E-03:1a 6.912E-03:1b 1.810E-02:1c 1.810E-02:1d 4.738E-02:1e 
4.738E-02:1f 1.240E-01:20 
#C 1.9280433316E-05 32
-4.862E-02:1 -1.857E-02:2 -1.857E-02:3 -7.093E-03:4 -7.093E-03:5 -2.706E-03:6 -2.706E-03:7 -1.027E-03:8 -1.027E-03:9 -3.733E-04:a 
-3.733E-04:b -9.333E-05:c -1.273E-01:d -4.862E-02:e 1.273E-01:f -1.273E-01:10 -9.333E-05:11 9.333E-05:12 9.333E-05:13 3.733E-04:14 
3.733E-04:15 1.027E-03:16 1.027E-03:17 2.706E-03:18 2.706E-03:19 7.093E-03:1a 7.093E-03:1b 1.857E-02:1c 1.857E-02:1d 4.862E-02:1e 
4.862E-02:1f 1.273E-01:20 
#C 2.0280456204E-05 32
-4.967E-02:1 -1.897E-02:2 -1.897E-02:3 -7.246E-03:4 -7.246E-03:5 -2.765E-03:6 -2.765E-03:7 -1.049E-03:8 -1.049E-03:9 -3.814E-04:a 
-3.814E-04:b -9.534E-05:c -1.301E-01:d -4.967E-02:e 1.301E-01:f -1.301E-01:10 -9.534E-05:11 9.534E-05:12 9.534E-05:13 3.814E-04:14 
3.814E-04:15 1.049E-03:16 1.049E-03:17 2.765E-03:18 2.765E-03:19 7.246E-03:1a 7.246E-03:1b 1.897E-02:1c 1.897E-02:1d 4.967E-02:1e 
4.967E-02:1f 1.301E-01:20 
#C 2.1280479093E-05 32
-5.053E-02:1 -1.930E-02:2 -1.930E-02:3 -7.371E-03:4 -7.371E-03:5 -2.813E-03:6 -2.813E-03:7 -1.067E-03:8 -1.067E-03:9 -3.879E-04:a 
-3.879E-04:b -9.699E-05:c -1.323E-01:d -5.053E-02:e 1.323E-01:f -1.323E-01:10 -9.699E-05:11 9.699E-05:12 9.699E-05:13 3.879E-04:14 
3.879E-04:15 1.067E-03:16 1.067E-03:17 2.813E-03:18 2.813E-03:19 7.371E-03:1a 7.371E-03:1b 1.930E-02:1c 1.930E-02:1d 5.053E-02:1e 
5.053E-02:1f 1.323E-01:20 
#C 2.2280501981E-05 32
-5.119E-02:1 -1.955E-02:2 -1.955E-02:3 -7.467E-03:4 -7.467E-03:5 -2.849E-03:6 -2.849E-03:7 -1.081E-03:8 -1.081E-03:9 -3.930E-04:a 
-3.930E-04:b -9.824E-05:c -1.340E-01:d -5.119E-02:e 1.340E-01:f -1.340E-01:10 -9.824E-05:11 9.824E-05:12 9.824E-05:13 3.930E-04:14 
3.930E-04:15 1.081E-03:16 1.081E-03:17 2.849E-03:18 2.849E-03:19 7.467E-03:1a 7.467E-03:1b 1.955E-02:1c 1.955E-02:1d 5.119E-02:1e 
5.119E-02:1f 1.340E-01:20 
#C 2.3280524869E-05 32
-5.164E-02:1 -1.972E-02:2 -1.972E-02:3 -7.533E-03:4 -7.533E-03:5 -2.874E-03:6 -2.874E-03:7 -1.090E-03:8 -1.090E-03:9 -3.965E-04:a 
-3.965E-04:b -9.911E-05:c -1.352E-01:d -5.164E-02:e 1.352E-01:f -1.352E-01:10 -9.911E-05:11 9.911E-05:12 9.911E-05:13 3.965E-04:14 
3.965E-04:15 1.090E-03:16 1.090E-03:17 2.874E-03:18 2.874E-03:19 7.533E-03:1a 7.533E-03:1b 1.972E-02:1c 1.972E-02:1d 5.164E-02:1e 
5.164E-02:1f 1.352E-01:20 
#C 2.4280547757E-05 32
-5.189E-02:1 -1.982E-02:2 -1.982E-02:3 -7.569E-03:4 -7.569E-03:5 -2.888E-03:6 -2.888E-03:7 -1.096E-03:8 -1.096E-03:9 -3.984E-04:a 
-3.984E-04:b -9.959E-05:c -1.358E-01:d -5.189E-02:e 1.358E-01:f -1.358E-01:10 -9.959E-05:11 9.959E-05:12 9.959E-05:13 3.984E-04:14 
3.984E-04:15 1.096E-03:16 1.096E-03:17 2.888E-03:18 2.888E-03:19 7.569E-03:1a 7.569E-03:1b 1.982E-02:1c 1.982E-02:1d 5.189E-02:1e 
5.189E-02:1f 1.358E-01:20 
#C 2.5280570645E-05 32
-5.193E-02:1 -1.984E-02:2 -1.984E-02:3 -7.576E-03:4 -7.576E-03:5 -2.891E-03:6 -2.891E-03:7 -1.096E-03:8 -1.096E-03:9 -3.987E-04:a 
-3.987E-04:b -9.968E-05:c -1.360E-01:d -5.193E-02:e 1.360E-01:f -1.360E-01:10 -9.968E-05:11 9.968E-05:12 9.968E-05:13 3.987E-04:14 
3.987E-04:15 1.096E-03:16 1.096E-03:17 2.891E-03:18 2.891E-03:19 7.576E-03:1a 7.576E-03:1b 1.984E-02:1c 1.984E-02:1d 5.193E-02:1e 
5.193E-02:1f 1.360E-01:20 
#C 2.6280593534E-05 32
-5.177E-02:1 -1.978E-02:2 -1.978E-02:3 -7.552E-03:4 -7.552E-03:5 -2.882E-03:6 -2.882E-03:7 -1.093E-03:8 -1.093E-03:9 -3.975E-04:a 
-3.975E-04:b -9.937E-05:c -1.355E-01:d -5.177E-02:e 1.355E-01:f -1.355E-01:10 -9.937E-05:11 9.937E-05:12 9.937E-05:13 3.975E-04:14 
3.975E-04:15 1.093E-03:16 1.093E-03:17 2.882E-03:18 2.882E-03:19 7.552E-03:1a 7.552E-03:1b 1.978E-02:1c 1.978E-02:1d 5.177E-02:1e 
5.177E-02:1f 1.355E-01:20 
#C 2.7280616422E-05 32
-5.141E-02:1 -1.964E-02:2 -1.964E-02:3 -7.499E-03:4 -7.499E-03:5 -2.862E-03:6 -2.862E-03:7 -1.085E-03:8 -1.085E-03:9 -3.947E-04:a 
-3.947E-04:b -9.867E-05:c -1.346E-01:d -5.141E-02:e 1.346E-01:f -1.346E-01:10 -9.867E-05:11 9.867E-05:12 9.867E-05:13 3.947E-04:14 
3.947E-04:15 1.085E-03:16 1.085E-03:17 2.862E-03:18 2.862E-03:19 7.499E-03:1a 7.499E-03:1b 1.964E-02:1c 1.964E-02:1d 5.141E-02:1e 
5.141E-02:1f 1.346E-01:20 
#C 2.8280639310E-05 32
-5.084E-02:1 -1.942E-02:2 -1.942E-02:3 -7.417E-03:4 -7.417E-03:5 -2.830E-03:6 -2.830E-03:7 -1.073E-03:8 -1.073E-03:9 -3.903E-04:a 
-3.903E-04:b -9.759E-05:c -1.331E-01:d -5.084E-02:e 1.331E-01:f -1.331E-01:10 -9.759E-05:11 9.759E-05:12 9.759E-05:13 3.903E-04:14 
3.903E-04:15 1.073E-03:16 1.073E-03:17 2.830E-03:18 2.830E-03:19 7.417E-03:1a 7.417E-03:1b 1.942E-02:1c 1.942E-02:1d 5.084E-02:1e 
5.084E-02:1f 1.331E-01:20 
#C 2.9280662198E-05 32
-5.007E-02:1 -1.913E-02:2 -1.913E-02:3 -7.304E-03:4 -7.304E-03:5 -2.787E-03:6 -2.787E-03:7 -1.057E-03:8 -1.057E-03:9 -3.844E-04:a 
-3.844E-04:b -9.611E-05:c -1.311E-01:d -5.007E-02:e 1.311E-01:f -1.311E-01:10 -9.611E-05:11 9.611E-05:12 9.611E-05:13 3.844E-04:14 
3.844E-04:15 1.057E-03:16 1.057E-03:17 2.787E-03:18 2.787E-03:19 7.304E-03:1a 7.304E-03:1b 1.913E-02:1c 1.913E-02:1d 5.007E-02:1e 
5.007E-02:1f 1.311E-01:20 
#C 3.0280685086E-05 32
-4.911E-02:1 -1.876E-02:2 -1.876E-02:3 -7.164E-03:4 -7.164E-03:5 -2.734E-03:6 -2.734E-03:7 -1.037E-03:8 -1.037E-03:9 -3.770E-04:a 
